
T2DA4 000:002 SEGGER J-Link V6.50 Log File (0000ms, 0002ms total)
T2DA4 000:002 DLL Compiled: Aug 16 2019 14:30:54 (0000ms, 0002ms total)
T2DA4 000:002 Logging started @ 2024-04-17 06:52 (0000ms, 0002ms total)
T2DA4 000:002 JLINK_SetWarnOutHandler(...) (0000ms, 0002ms total)
T2DA4 000:002 JLINK_OpenEx(...)
Firmware: J-Link V9 compiled Jun  2 2222 22:22:22
Hardware: V9.60
S/N: 59611001
Feature(s): GDB, RDI, FlashBP, FlashDL, JFlash, RDDI
TELNET listener socket opened on port 19021WEBSRV 
Starting webserver (0031ms, 0033ms total)
T2DA4 000:002 WEBSRV Webserver running on local port 19080 (0031ms, 0033ms total)
T2DA4 000:002   returns O.K. (0031ms, 0033ms total)
T2DA4 000:033 JLINK_GetEmuCaps()  returns 0xB9FF7BBF (0001ms, 0034ms total)
T2DA4 000:034 JLINK_TIF_GetAvailable(...) (0000ms, 0034ms total)
T2DA4 000:034 JLINK_SetErrorOutHandler(...) (0000ms, 0034ms total)
T2DA4 000:034 JLINK_ExecCommand("ProjectFile = "D:\气腹机资料\新气腹机资料\软件\New QFJN - V1.7 - 增加报警\New QFJN\MDK-ARM\JLinkSettings.ini"", ...). Ref file found at: C:\Keil_v5\ARM\Segger\JLinkDevices.ref (0001ms, 0035ms total)
T2DA4 000:034 XML referenced by ref file: C:\Program Files (x86)\SEGGER\JLink\JLinkDevices.xml (0001ms, 0035ms total)
T2DA4 000:034 C:\Program Files (x86)\SEGGER\JLink\JLinkDevices.xml evaluated successfully. (0004ms, 0038ms total)
T2DA4 000:034   returns 0x00 (0062ms, 0096ms total)
T2DA4 000:098 JLINK_ExecCommand("Device = STM32F103RC", ...). Device "STM32F103RC" selected.  returns 0x00 (0002ms, 0098ms total)
T2DA4 000:100 JLINK_ExecCommand("DisableConnectionTimeout", ...).   returns 0x01 (0000ms, 0098ms total)
T2DA4 000:100 JLINK_GetHardwareVersion()  returns 0x17700 (0000ms, 0098ms total)
T2DA4 000:100 JLINK_GetDLLVersion()  returns 65000 (0000ms, 0098ms total)
T2DA4 000:100 JLINK_GetFirmwareString(...) (0000ms, 0098ms total)
T2DA4 000:103 JLINK_GetDLLVersion()  returns 65000 (0000ms, 0098ms total)
T2DA4 000:103 JLINK_GetCompileDateTime() (0000ms, 0098ms total)
T2DA4 000:104 JLINK_GetFirmwareString(...) (0000ms, 0098ms total)
T2DA4 000:108 JLINK_GetHardwareVersion()  returns 0x17700 (0000ms, 0098ms total)
T2DA4 000:117 JLINK_TIF_Select(JLINKARM_TIF_SWD)  returns 0x00 (0001ms, 0099ms total)
T2DA4 000:118 JLINK_SetSpeed(5000) (0000ms, 0099ms total)
T2DA4 000:118 JLINK_GetId() >0x10B TIF>Found SW-DP with ID 0x1BA01477 >0x0D TIF> >0x28 TIF> >0x0D TIF> >0x28 TIF> >0x0D TIF> >0x28 TIF> >0x0D TIF> >0x28 TIF> >0x0D TIF> >0x21 TIF> >0x0D TIF> >0x28 TIF> >0x0D TIF> >0x28 TIF> >0x0D TIF> >0x28 TIF> >0x0D TIF> >0x21 TIF> >0x0D TIF> >0x21 TIF> >0x0D TIF> >0x28 TIF> >0x0D TIF> >0x21 TIF> >0x0D TIF> >0x21 TIF> >0x0D TIF> >0x28 TIF> >0x0D TIF> >0x28 TIF> >0x0D TIF> >0x28 TIF> >0x0D TIF> >0x21 TIF> >0x0D TIF> >0x21 TIF> >0x0D TIF> >0x28 TIF> >0x0D TIF> >0x21 TIF>
 >0x0D TIF> >0x21 TIF> >0x0D TIF> >0x28 TIF> >0x0D TIF> >0x21 TIF> >0x0D TIF> >0x21 TIF> >0x0D TIF> >0x28 TIF> >0x0D TIF> >0x21 TIF> >0x0D TIF> >0x21 TIF> >0x0D TIF> >0x28 TIF> >0x0D TIF> >0x21 TIF> >0x0D TIF> >0x21 TIF> >0x10B TIF>Found SW-DP with ID 0x1BA01477 >0x0D TIF> >0x28 TIF> >0x0D TIF> >0x28 TIF> >0x0D TIF> >0x28 TIF> >0x0D TIF> >0x28 TIF> >0x0D TIF> >0x21 TIF> >0x0D TIF> >0x28 TIF>Scanning AP map to find all available APs >0x0D TIF> >0x28 TIF> >0x0D TIF> >0x21 TIF> >0x0D TIF> >0x21 TIF>
 >0x0D TIF> >0x28 TIF> >0x0D TIF> >0x21 TIF> >0x0D TIF> >0x21 TIF>AP[1]: Stopped AP scan as end of AP map has been reachedAP[0]: AHB-AP (IDR: 0x14770011)Iterating through AP map to find AHB-AP to use >0x42 TIF> >0x28 TIF> >0x0D TIF> >0x28 TIF> >0x0D TIF> >0x21 TIF> >0x0D TIF> >0x21 TIF> >0x42 TIF> >0x28 TIF> >0x0D TIF> >0x28 TIF> >0x0D TIF> >0x28 TIF> >0x0D TIF> >0x21 TIF> >0x0D TIF> >0x21 TIF>AP[0]: Core foundAP[0]: AHB-AP ROM base: 0xE00FF000 >0x0D TIF> >0x28 TIF> >0x0D TIF> >0x28 TIF> >0x0D TIF>
 >0x28 TIF> >0x0D TIF> >0x21 TIF> >0x0D TIF> >0x21 TIF>CPUID register: 0x411FC231. Implementer code: 0x41 (ARM)Found Cortex-M3 r1p1, Little endian. -- Max. mem block: 0x00010FB0 -- CPU_ReadMem(4 bytes @ 0xE000EDF0) -- CPU_WriteMem(4 bytes @ 0xE000EDF0) -- CPU_ReadMem(4 bytes @ 0xE0002000)FPUnit: 6 code (BP) slots and 2 literal slots -- CPU_ReadMem(4 bytes @ 0xE000EDFC) -- CPU_WriteMem(4 bytes @ 0xE000EDFC) -- CPU_ReadMem(4 bytes @ 0xE0001000) -- CPU_WriteMem(4 bytes @ 0xE0001000)
 -- CPU_ReadMem(4 bytes @ 0xE000ED88) -- CPU_WriteMem(4 bytes @ 0xE000ED88) -- CPU_ReadMem(4 bytes @ 0xE000ED88) -- CPU_WriteMem(4 bytes @ 0xE000ED88)CoreSight components:ROMTbl[0] @ E00FF000 -- CPU_ReadMem(16 bytes @ 0xE00FF000) -- CPU_ReadMem(16 bytes @ 0xE000EFF0) -- CPU_ReadMem(16 bytes @ 0xE000EFE0)ROMTbl[0][0]: E000E000, CID: B105E00D, PID: 001BB000 SCS -- CPU_ReadMem(16 bytes @ 0xE0001FF0) -- CPU_ReadMem(16 bytes @ 0xE0001FE0)ROMTbl[0][1]: E0001000, CID: B105E00D, PID: 001BB002 DWT
 -- CPU_ReadMem(16 bytes @ 0xE0002FF0) -- CPU_ReadMem(16 bytes @ 0xE0002FE0)ROMTbl[0][2]: E0002000, CID: B105E00D, PID: 000BB003 FPB -- CPU_ReadMem(16 bytes @ 0xE0000FF0) -- CPU_ReadMem(16 bytes @ 0xE0000FE0)ROMTbl[0][3]: E0000000, CID: B105E00D, PID: 001BB001 ITM -- CPU_ReadMem(16 bytes @ 0xE00FF010) -- CPU_ReadMem(16 bytes @ 0xE0040FF0) -- CPU_ReadMem(16 bytes @ 0xE0040FE0)ROMTbl[0][4]: E0040000, CID: B105900D, PID: 001BB923 TPIU-Lite -- CPU_ReadMem(16 bytes @ 0xE0041FF0)
 -- CPU_ReadMem(16 bytes @ 0xE0041FE0)ROMTbl[0][5]: E0041000, CID: B105900D, PID: 101BB924 ETM-M3 >0x0D TIF> >0x21 TIF>  returns 0x1BA01477 (0169ms, 0268ms total)
T2DA4 000:287 JLINK_GetDLLVersion()  returns 65000 (0000ms, 0268ms total)
T2DA4 000:287 JLINK_CORE_GetFound()  returns 0x30000FF (0000ms, 0268ms total)
T2DA4 000:287 JLINK_GetDebugInfo(0x100 = JLINKARM_ROM_TABLE_ADDR_INDEX) -- Value=0xE00FF000  returns 0x00 (0000ms, 0268ms total)
T2DA4 000:290 JLINK_GetDebugInfo(0x100 = JLINKARM_ROM_TABLE_ADDR_INDEX) -- Value=0xE00FF000  returns 0x00 (0000ms, 0268ms total)
T2DA4 000:290 JLINK_GetDebugInfo(0x101 = JLINKARM_DEBUG_INFO_ETM_ADDR_INDEX) -- Value=0xE0041000  returns 0x00 (0000ms, 0268ms total)
T2DA4 000:290 JLINK_ReadMemEx(0xE0041FD0, 0x0020 Bytes, ..., Flags = 0x02000004) -- CPU_ReadMem(32 bytes @ 0xE0041FD0) - Data: 04 00 00 00 00 00 00 00 00 00 00 00 00 00 00 00 ...  returns 0x20 (0000ms, 0268ms total)
T2DA4 000:290 JLINK_GetDebugInfo(0x102 = JLINKARM_DEBUG_INFO_MTB_ADDR_INDEX) -- Value=0x00000000  returns 0x00 (0000ms, 0268ms total)
T2DA4 000:290 JLINK_GetDebugInfo(0x103 = JLINKARM_DEBUG_INFO_TPIU_ADDR_INDEX) -- Value=0xE0040000  returns 0x00 (0000ms, 0268ms total)
T2DA4 000:290 JLINK_GetDebugInfo(0x104 = JLINKARM_DEBUG_INFO_ITM_ADDR_INDEX) -- Value=0xE0000000  returns 0x00 (0000ms, 0268ms total)
T2DA4 000:290 JLINK_GetDebugInfo(0x105 = JLINKARM_DEBUG_INFO_DWT_ADDR_INDEX) -- Value=0xE0001000  returns 0x00 (0000ms, 0268ms total)
T2DA4 000:290 JLINK_GetDebugInfo(0x106 = JLINKARM_DEBUG_INFO_FPB_ADDR_INDEX) -- Value=0xE0002000  returns 0x00 (0000ms, 0268ms total)
T2DA4 000:290 JLINK_GetDebugInfo(0x107 = JLINKARM_DEBUG_INFO_NVIC_ADDR_INDEX) -- Value=0xE000E000  returns 0x00 (0000ms, 0268ms total)
T2DA4 000:290 JLINK_GetDebugInfo(0x10C = JLINKARM_DEBUG_INFO_DBG_ADDR_INDEX) -- Value=0xE000EDF0  returns 0x00 (0000ms, 0268ms total)
T2DA4 000:290 JLINK_GetDebugInfo(0x01 = Unknown) -- Value=0x00000000  returns 0x00 (0000ms, 0268ms total)
T2DA4 000:290 JLINK_ReadMemU32(0xE000ED00, 0x0001 Items, ...) -- CPU_ReadMem(4 bytes @ 0xE000ED00) - Data: 31 C2 1F 41  returns 1 (0000ms, 0268ms total)
T2DA4 000:290 JLINK_GetDebugInfo(0x10F = JLINKARM_DEBUG_INFO_HAS_CORTEX_M_SECURITY_EXT_INDEX) -- Value=0x00000000  returns 0x00 (0000ms, 0268ms total)
T2DA4 000:290 JLINK_SetResetType(JLINKARM_CM3_RESET_TYPE_NORMAL)  returns JLINKARM_CM3_RESET_TYPE_NORMAL (0000ms, 0268ms total)
T2DA4 000:290 JLINK_Reset() -- CPU is running -- CPU_WriteMem(4 bytes @ 0xE000EDF0) -- CPU is running -- CPU_WriteMem(4 bytes @ 0xE000EDFC)Reset: Halt core after reset via DEMCR.VC_CORERESET. >0x35 TIF>Reset: Reset device via AIRCR.SYSRESETREQ. -- CPU is running -- CPU_WriteMem(4 bytes @ 0xE000ED0C) >0x0D TIF> >0x28 TIF> -- CPU_ReadMem(4 bytes @ 0xE000EDF0) -- CPU_ReadMem(4 bytes @ 0xE000EDF0) -- CPU is running -- CPU_WriteMem(4 bytes @ 0xE000EDF0) -- CPU is running -- CPU_WriteMem(4 bytes @ 0xE000EDFC)
 -- CPU_ReadMem(4 bytes @ 0xE000EDF0) -- CPU_WriteMem(4 bytes @ 0xE0002000) -- CPU_ReadMem(4 bytes @ 0xE000EDFC) -- CPU_ReadMem(4 bytes @ 0xE0001000) (0067ms, 0335ms total)
T2DA4 000:357 JLINK_Halt()  returns 0x00 (0000ms, 0335ms total)
T2DA4 000:357 JLINK_ReadMemU32(0xE000EDF0, 0x0001 Items, ...) -- CPU_ReadMem(4 bytes @ 0xE000EDF0) - Data: 03 00 03 00  returns 1 (0001ms, 0336ms total)
T2DA4 000:358 JLINK_WriteU32(0xE000EDF0, 0xA05F0003) -- CPU_WriteMem(4 bytes @ 0xE000EDF0)  returns 0 (0000ms, 0336ms total)
T2DA4 000:358 JLINK_WriteU32(0xE000EDFC, 0x01000000) -- CPU_WriteMem(4 bytes @ 0xE000EDFC)  returns 0 (0000ms, 0336ms total)
T2DA4 000:375 JLINK_GetHWStatus(...)  returns 0x00 (0000ms, 0336ms total)
T2DA4 000:386 JLINK_GetNumBPUnits(Type = 0xFFFFFF00)  returns 0x06 (0000ms, 0336ms total)
T2DA4 000:386 JLINK_GetNumBPUnits(Type = 0xF0)  returns 0x2000 (0000ms, 0336ms total)
T2DA4 000:386 JLINK_GetNumWPUnits()  returns 0x04 (0000ms, 0336ms total)
T2DA4 000:394 JLINK_GetSpeed()  returns 0xFA0 (0000ms, 0336ms total)
T2DA4 000:399 JLINK_ReadMemU32(0xE000E004, 0x0001 Items, ...) -- CPU_ReadMem(4 bytes @ 0xE000E004) - Data: 01 00 00 00  returns 1 (0000ms, 0336ms total)
T2DA4 000:399 JLINK_ReadMemU32(0xE000E004, 0x0001 Items, ...) -- CPU_ReadMem(4 bytes @ 0xE000E004) - Data: 01 00 00 00  returns 1 (0000ms, 0336ms total)
T2DA4 000:399 JLINK_WriteMemEx(0xE0001000, 0x001C Bytes, ..., Flags = 0x02000004) - Data: 01 00 00 00 00 00 00 00 00 00 00 00 00 00 00 00 ... -- CPU_WriteMem(28 bytes @ 0xE0001000)  returns 0x1C (0001ms, 0337ms total)
T2DA4 000:400 JLINK_Halt()  returns 0x00 (0000ms, 0337ms total)
T2DA4 000:400 JLINK_IsHalted()  returns TRUE (0000ms, 0337ms total)
T2DA4 000:403 JLINK_WriteMem(0x20000000, 0x0164 Bytes, ...) - Data: 00 BE 0A E0 0D 78 2D 06 68 40 08 24 40 00 00 D3 ... -- CPU_WriteMem(356 bytes @ 0x20000000)  returns 0x164 (0002ms, 0339ms total)
T2DA4 000:405 JLINK_WriteReg(R0, 0x08000000)  returns 0x00 (0000ms, 0339ms total)
T2DA4 000:405 JLINK_WriteReg(R1, 0x007A1200)  returns 0x00 (0000ms, 0339ms total)
T2DA4 000:405 JLINK_WriteReg(R2, 0x00000001)  returns 0x00 (0000ms, 0339ms total)
T2DA4 000:405 JLINK_WriteReg(R3, 0x00000000)  returns 0x00 (0000ms, 0339ms total)
T2DA4 000:405 JLINK_WriteReg(R4, 0x00000000)  returns 0x00 (0000ms, 0339ms total)
T2DA4 000:405 JLINK_WriteReg(R5, 0x00000000)  returns 0x00 (0000ms, 0339ms total)
T2DA4 000:405 JLINK_WriteReg(R6, 0x00000000)  returns 0x00 (0000ms, 0339ms total)
T2DA4 000:405 JLINK_WriteReg(R7, 0x00000000)  returns 0x00 (0000ms, 0339ms total)
T2DA4 000:405 JLINK_WriteReg(R8, 0x00000000)  returns 0x00 (0000ms, 0339ms total)
T2DA4 000:405 JLINK_WriteReg(R9, 0x20000160)  returns 0x00 (0000ms, 0339ms total)
T2DA4 000:405 JLINK_WriteReg(R10, 0x00000000)  returns 0x00 (0000ms, 0339ms total)
T2DA4 000:405 JLINK_WriteReg(R11, 0x00000000)  returns 0x00 (0000ms, 0339ms total)
T2DA4 000:405 JLINK_WriteReg(R12, 0x00000000)  returns 0x00 (0000ms, 0339ms total)
T2DA4 000:405 JLINK_WriteReg(R13 (SP), 0x20001000)  returns 0x00 (0000ms, 0339ms total)
T2DA4 000:405 JLINK_WriteReg(R14, 0x20000001)  returns 0x00 (0000ms, 0339ms total)
T2DA4 000:405 JLINK_WriteReg(R15 (PC), 0x20000038)  returns 0x00 (0000ms, 0339ms total)
T2DA4 000:405 JLINK_WriteReg(XPSR, 0x01000000)  returns 0x00 (0000ms, 0339ms total)
T2DA4 000:405 JLINK_WriteReg(MSP, 0x20001000)  returns 0x00 (0000ms, 0339ms total)
T2DA4 000:405 JLINK_WriteReg(PSP, 0x20001000)  returns 0x00 (0000ms, 0339ms total)
T2DA4 000:406 JLINK_WriteReg(CFBP, 0x00000000)  returns 0x00 (0000ms, 0340ms total)
T2DA4 000:406 JLINK_SetBPEx(Addr = 0x20000000, Type = 0xFFFFFFF2) -- CPU_ReadMem(2 bytes @ 0x20000000)  returns 0x00000001 (0000ms, 0340ms total)
T2DA4 000:406 JLINK_Go() -- CPU_WriteMem(2 bytes @ 0x20000000) -- CPU_ReadMem(4 bytes @ 0xE0001000) -- CPU_WriteMem(4 bytes @ 0xE0002008) -- CPU_WriteMem(4 bytes @ 0xE000200C) -- CPU_WriteMem(4 bytes @ 0xE0002010) -- CPU_WriteMem(4 bytes @ 0xE0002014) -- CPU_WriteMem(4 bytes @ 0xE0002018) -- CPU_WriteMem(4 bytes @ 0xE000201C) -- CPU_WriteMem(4 bytes @ 0xE0001004) (0003ms, 0343ms total)
T2DA4 000:409 JLINK_IsHalted() -- CPU_ReadMem(2 bytes @ 0x20000000)  returns TRUE (0002ms, 0345ms total)
T2DA4 000:411 JLINK_ReadReg(R15 (PC))  returns 0x20000000 (0000ms, 0343ms total)
T2DA4 000:411 JLINK_ClrBPEx(BPHandle = 0x00000001)  returns 0x00 (0000ms, 0343ms total)
T2DA4 000:411 JLINK_ReadReg(R0)  returns 0x00000000 (0000ms, 0343ms total)
T2DA4 000:411 JLINK_WriteReg(R0, 0x08000000)  returns 0x00 (0000ms, 0343ms total)
T2DA4 000:411 JLINK_WriteReg(R1, 0x007A1200)  returns 0x00 (0000ms, 0343ms total)
T2DA4 000:411 JLINK_WriteReg(R2, 0x00000001)  returns 0x00 (0000ms, 0343ms total)
T2DA4 000:411 JLINK_WriteReg(R3, 0x00000000)  returns 0x00 (0000ms, 0343ms total)
T2DA4 000:411 JLINK_WriteReg(R4, 0x00000000)  returns 0x00 (0000ms, 0343ms total)
T2DA4 000:411 JLINK_WriteReg(R5, 0x00000000)  returns 0x00 (0000ms, 0343ms total)
T2DA4 000:411 JLINK_WriteReg(R6, 0x00000000)  returns 0x00 (0000ms, 0343ms total)
T2DA4 000:411 JLINK_WriteReg(R7, 0x00000000)  returns 0x00 (0000ms, 0343ms total)
T2DA4 000:411 JLINK_WriteReg(R8, 0x00000000)  returns 0x00 (0000ms, 0343ms total)
T2DA4 000:411 JLINK_WriteReg(R9, 0x20000160)  returns 0x00 (0000ms, 0343ms total)
T2DA4 000:411 JLINK_WriteReg(R10, 0x00000000)  returns 0x00 (0000ms, 0343ms total)
T2DA4 000:411 JLINK_WriteReg(R11, 0x00000000)  returns 0x00 (0000ms, 0343ms total)
T2DA4 000:411 JLINK_WriteReg(R12, 0x00000000)  returns 0x00 (0000ms, 0343ms total)
T2DA4 000:411 JLINK_WriteReg(R13 (SP), 0x20001000)  returns 0x00 (0000ms, 0343ms total)
T2DA4 000:411 JLINK_WriteReg(R14, 0x20000001)  returns 0x00 (0000ms, 0343ms total)
T2DA4 000:411 JLINK_WriteReg(R15 (PC), 0x2000007C)  returns 0x00 (0000ms, 0343ms total)
T2DA4 000:411 JLINK_WriteReg(XPSR, 0x01000000)  returns 0x00 (0000ms, 0343ms total)
T2DA4 000:411 JLINK_WriteReg(MSP, 0x20001000)  returns 0x00 (0000ms, 0343ms total)
T2DA4 000:411 JLINK_WriteReg(PSP, 0x20001000)  returns 0x00 (0000ms, 0343ms total)
T2DA4 000:411 JLINK_WriteReg(CFBP, 0x00000000)  returns 0x00 (0000ms, 0343ms total)
T2DA4 000:411 JLINK_SetBPEx(Addr = 0x20000000, Type = 0xFFFFFFF2)  returns 0x00000002 (0000ms, 0343ms total)
T2DA4 000:411 JLINK_Go() -- CPU_ReadMem(4 bytes @ 0xE0001000) (0002ms, 0345ms total)
T2DA4 000:413 JLINK_IsHalted()  returns FALSE (0000ms, 0345ms total)
T2DA4 000:448 JLINK_IsHalted() -- CPU_ReadMem(2 bytes @ 0x20000000)  returns TRUE (0001ms, 0346ms total)
T2DA4 000:449 JLINK_ReadReg(R15 (PC))  returns 0x20000000 (0000ms, 0345ms total)
T2DA4 000:449 JLINK_ClrBPEx(BPHandle = 0x00000002)  returns 0x00 (0001ms, 0346ms total)
T2DA4 000:450 JLINK_ReadReg(R0)  returns 0x00000000 (0000ms, 0346ms total)
T2DA4 000:502 JLINK_WriteReg(R0, 0x00000001)  returns 0x00 (0000ms, 0346ms total)
T2DA4 000:502 JLINK_WriteReg(R1, 0x007A1200)  returns 0x00 (0000ms, 0346ms total)
T2DA4 000:502 JLINK_WriteReg(R2, 0x00000001)  returns 0x00 (0000ms, 0346ms total)
T2DA4 000:502 JLINK_WriteReg(R3, 0x00000000)  returns 0x00 (0000ms, 0346ms total)
T2DA4 000:502 JLINK_WriteReg(R4, 0x00000000)  returns 0x00 (0000ms, 0346ms total)
T2DA4 000:502 JLINK_WriteReg(R5, 0x00000000)  returns 0x00 (0000ms, 0346ms total)
T2DA4 000:502 JLINK_WriteReg(R6, 0x00000000)  returns 0x00 (0000ms, 0346ms total)
T2DA4 000:502 JLINK_WriteReg(R7, 0x00000000)  returns 0x00 (0000ms, 0346ms total)
T2DA4 000:502 JLINK_WriteReg(R8, 0x00000000)  returns 0x00 (0000ms, 0346ms total)
T2DA4 000:502 JLINK_WriteReg(R9, 0x20000160)  returns 0x00 (0000ms, 0346ms total)
T2DA4 000:502 JLINK_WriteReg(R10, 0x00000000)  returns 0x00 (0000ms, 0346ms total)
T2DA4 000:502 JLINK_WriteReg(R11, 0x00000000)  returns 0x00 (0000ms, 0346ms total)
T2DA4 000:502 JLINK_WriteReg(R12, 0x00000000)  returns 0x00 (0000ms, 0346ms total)
T2DA4 000:502 JLINK_WriteReg(R13 (SP), 0x20001000)  returns 0x00 (0000ms, 0346ms total)
T2DA4 000:502 JLINK_WriteReg(R14, 0x20000001)  returns 0x00 (0000ms, 0346ms total)
T2DA4 000:502 JLINK_WriteReg(R15 (PC), 0x2000006A)  returns 0x00 (0000ms, 0346ms total)
T2DA4 000:502 JLINK_WriteReg(XPSR, 0x01000000)  returns 0x00 (0000ms, 0346ms total)
T2DA4 000:502 JLINK_WriteReg(MSP, 0x20001000)  returns 0x00 (0000ms, 0346ms total)
T2DA4 000:502 JLINK_WriteReg(PSP, 0x20001000)  returns 0x00 (0000ms, 0346ms total)
T2DA4 000:502 JLINK_WriteReg(CFBP, 0x00000000)  returns 0x00 (0000ms, 0346ms total)
T2DA4 000:502 JLINK_SetBPEx(Addr = 0x20000000, Type = 0xFFFFFFF2)  returns 0x00000003 (0000ms, 0346ms total)
T2DA4 000:502 JLINK_Go() -- CPU_ReadMem(4 bytes @ 0xE0001000) (0001ms, 0347ms total)
T2DA4 000:503 JLINK_IsHalted() -- CPU_ReadMem(2 bytes @ 0x20000000)  returns TRUE (0002ms, 0349ms total)
T2DA4 000:505 JLINK_ReadReg(R15 (PC))  returns 0x20000000 (0000ms, 0347ms total)
T2DA4 000:505 JLINK_ClrBPEx(BPHandle = 0x00000003)  returns 0x00 (0000ms, 0347ms total)
T2DA4 000:505 JLINK_ReadReg(R0)  returns 0x00000000 (0000ms, 0347ms total)
T2DA4 000:510 JLINK_WriteMem(0x20000000, 0x0164 Bytes, ...) - Data: 00 BE 0A E0 0D 78 2D 06 68 40 08 24 40 00 00 D3 ... -- CPU_WriteMem(356 bytes @ 0x20000000)  returns 0x164 (0001ms, 0348ms total)
T2DA4 000:511 JLINK_WriteReg(R0, 0x08000000)  returns 0x00 (0000ms, 0348ms total)
T2DA4 000:511 JLINK_WriteReg(R1, 0x007A1200)  returns 0x00 (0000ms, 0348ms total)
T2DA4 000:511 JLINK_WriteReg(R2, 0x00000002)  returns 0x00 (0000ms, 0348ms total)
T2DA4 000:511 JLINK_WriteReg(R3, 0x00000000)  returns 0x00 (0000ms, 0348ms total)
T2DA4 000:511 JLINK_WriteReg(R4, 0x00000000)  returns 0x00 (0000ms, 0348ms total)
T2DA4 000:511 JLINK_WriteReg(R5, 0x00000000)  returns 0x00 (0000ms, 0348ms total)
T2DA4 000:511 JLINK_WriteReg(R6, 0x00000000)  returns 0x00 (0000ms, 0348ms total)
T2DA4 000:511 JLINK_WriteReg(R7, 0x00000000)  returns 0x00 (0000ms, 0348ms total)
T2DA4 000:511 JLINK_WriteReg(R8, 0x00000000)  returns 0x00 (0000ms, 0348ms total)
T2DA4 000:511 JLINK_WriteReg(R9, 0x20000160)  returns 0x00 (0000ms, 0348ms total)
T2DA4 000:511 JLINK_WriteReg(R10, 0x00000000)  returns 0x00 (0000ms, 0348ms total)
T2DA4 000:511 JLINK_WriteReg(R11, 0x00000000)  returns 0x00 (0000ms, 0348ms total)
T2DA4 000:511 JLINK_WriteReg(R12, 0x00000000)  returns 0x00 (0000ms, 0348ms total)
T2DA4 000:511 JLINK_WriteReg(R13 (SP), 0x20001000)  returns 0x00 (0000ms, 0348ms total)
T2DA4 000:511 JLINK_WriteReg(R14, 0x20000001)  returns 0x00 (0000ms, 0348ms total)
T2DA4 000:511 JLINK_WriteReg(R15 (PC), 0x20000038)  returns 0x00 (0000ms, 0348ms total)
T2DA4 000:511 JLINK_WriteReg(XPSR, 0x01000000)  returns 0x00 (0000ms, 0348ms total)
T2DA4 000:511 JLINK_WriteReg(MSP, 0x20001000)  returns 0x00 (0002ms, 0350ms total)
T2DA4 000:513 JLINK_WriteReg(PSP, 0x20001000)  returns 0x00 (0000ms, 0350ms total)
T2DA4 000:513 JLINK_WriteReg(CFBP, 0x00000000)  returns 0x00 (0000ms, 0350ms total)
T2DA4 000:513 JLINK_SetBPEx(Addr = 0x20000000, Type = 0xFFFFFFF2) -- CPU_ReadMem(2 bytes @ 0x20000000)  returns 0x00000004 (0000ms, 0350ms total)
T2DA4 000:513 JLINK_Go() -- CPU_WriteMem(2 bytes @ 0x20000000) -- CPU_ReadMem(4 bytes @ 0xE0001000) (0002ms, 0352ms total)
T2DA4 000:515 JLINK_IsHalted() -- CPU_ReadMem(2 bytes @ 0x20000000)  returns TRUE (0002ms, 0354ms total)
T2DA4 000:517 JLINK_ReadReg(R15 (PC))  returns 0x20000000 (0000ms, 0352ms total)
T2DA4 000:517 JLINK_ClrBPEx(BPHandle = 0x00000004)  returns 0x00 (0000ms, 0352ms total)
T2DA4 000:517 JLINK_ReadReg(R0)  returns 0x00000000 (0000ms, 0352ms total)
T2DA4 000:517 JLINK_WriteMem(0x20000164, 0x029C Bytes, ...) - Data: 20 0F 00 20 CD 01 00 08 8F 40 00 08 D5 35 00 08 ... -- CPU_WriteMem(668 bytes @ 0x20000164)  returns 0x29C (0003ms, 0355ms total)
T2DA4 000:520 JLINK_WriteMem(0x20000400, 0x0164 Bytes, ...) - Data: C0 09 AC E8 C0 09 AC E8 C0 09 8D 46 70 47 10 B5 ... -- CPU_WriteMem(356 bytes @ 0x20000400)  returns 0x164 (0001ms, 0356ms total)
T2DA4 000:521 JLINK_WriteReg(R0, 0x08000000)  returns 0x00 (0000ms, 0356ms total)
T2DA4 000:521 JLINK_WriteReg(R1, 0x00000400)  returns 0x00 (0000ms, 0356ms total)
T2DA4 000:521 JLINK_WriteReg(R2, 0x20000164)  returns 0x00 (0000ms, 0356ms total)
T2DA4 000:521 JLINK_WriteReg(R3, 0x00000000)  returns 0x00 (0000ms, 0356ms total)
T2DA4 000:521 JLINK_WriteReg(R4, 0x00000000)  returns 0x00 (0000ms, 0356ms total)
T2DA4 000:521 JLINK_WriteReg(R5, 0x00000000)  returns 0x00 (0000ms, 0356ms total)
T2DA4 000:521 JLINK_WriteReg(R6, 0x00000000)  returns 0x00 (0000ms, 0356ms total)
T2DA4 000:521 JLINK_WriteReg(R7, 0x00000000)  returns 0x00 (0000ms, 0356ms total)
T2DA4 000:521 JLINK_WriteReg(R8, 0x00000000)  returns 0x00 (0000ms, 0356ms total)
T2DA4 000:521 JLINK_WriteReg(R9, 0x20000160)  returns 0x00 (0000ms, 0356ms total)
T2DA4 000:521 JLINK_WriteReg(R10, 0x00000000)  returns 0x00 (0000ms, 0356ms total)
T2DA4 000:521 JLINK_WriteReg(R11, 0x00000000)  returns 0x00 (0000ms, 0356ms total)
T2DA4 000:521 JLINK_WriteReg(R12, 0x00000000)  returns 0x00 (0000ms, 0356ms total)
T2DA4 000:521 JLINK_WriteReg(R13 (SP), 0x20001000)  returns 0x00 (0000ms, 0356ms total)
T2DA4 000:521 JLINK_WriteReg(R14, 0x20000001)  returns 0x00 (0000ms, 0356ms total)
T2DA4 000:521 JLINK_WriteReg(R15 (PC), 0x200000F4)  returns 0x00 (0000ms, 0356ms total)
T2DA4 000:521 JLINK_WriteReg(XPSR, 0x01000000)  returns 0x00 (0000ms, 0356ms total)
T2DA4 000:521 JLINK_WriteReg(MSP, 0x20001000)  returns 0x00 (0000ms, 0356ms total)
T2DA4 000:521 JLINK_WriteReg(PSP, 0x20001000)  returns 0x00 (0000ms, 0356ms total)
T2DA4 000:521 JLINK_WriteReg(CFBP, 0x00000000)  returns 0x00 (0000ms, 0356ms total)
T2DA4 000:521 JLINK_SetBPEx(Addr = 0x20000000, Type = 0xFFFFFFF2)  returns 0x00000005 (0000ms, 0356ms total)
T2DA4 000:521 JLINK_Go() -- CPU_ReadMem(4 bytes @ 0xE0001000) (0002ms, 0358ms total)
T2DA4 000:523 JLINK_IsHalted()  returns FALSE (0000ms, 0358ms total)
T2DA4 000:528 JLINK_IsHalted()  returns FALSE (0000ms, 0358ms total)
T2DA4 000:530 JLINK_IsHalted()  returns FALSE (0000ms, 0358ms total)
T2DA4 000:533 JLINK_IsHalted()  returns FALSE (0000ms, 0358ms total)
T2DA4 000:535 JLINK_IsHalted()  returns FALSE (0000ms, 0358ms total)
T2DA4 000:537 JLINK_IsHalted()  returns FALSE (0000ms, 0358ms total)
T2DA4 000:538 JLINK_IsHalted()  returns FALSE (0000ms, 0358ms total)
T2DA4 000:540 JLINK_IsHalted()  returns FALSE (0000ms, 0358ms total)
T2DA4 000:543 JLINK_IsHalted()  returns FALSE (0000ms, 0358ms total)
T2DA4 000:545 JLINK_IsHalted()  returns FALSE (0000ms, 0358ms total)
T2DA4 000:547 JLINK_IsHalted()  returns FALSE (0000ms, 0358ms total)
T2DA4 000:549 JLINK_IsHalted()  returns FALSE (0000ms, 0358ms total)
T2DA4 000:551 JLINK_IsHalted()  returns FALSE (0000ms, 0358ms total)
T2DA4 000:553 JLINK_IsHalted()  returns FALSE (0000ms, 0358ms total)
T2DA4 000:554 JLINK_IsHalted() -- CPU_ReadMem(2 bytes @ 0x20000000)  returns TRUE (0001ms, 0359ms total)
T2DA4 000:555 JLINK_ReadReg(R15 (PC))  returns 0x20000000 (0000ms, 0358ms total)
T2DA4 000:555 JLINK_ClrBPEx(BPHandle = 0x00000005)  returns 0x00 (0000ms, 0358ms total)
T2DA4 000:555 JLINK_ReadReg(R0)  returns 0x00000000 (0000ms, 0358ms total)
T2DA4 000:556 JLINK_WriteMem(0x20000164, 0x029C Bytes, ...) - Data: 20 68 80 68 C0 43 C0 07 E4 D1 00 20 F8 BD 00 00 ... -- CPU_WriteMem(668 bytes @ 0x20000164)  returns 0x29C (0003ms, 0361ms total)
T2DA4 000:559 JLINK_WriteMem(0x20000400, 0x0164 Bytes, ...) - Data: 70 47 4F F4 7A 72 06 E0 11 46 49 1E 09 04 09 0C ... -- CPU_WriteMem(356 bytes @ 0x20000400)  returns 0x164 (0001ms, 0362ms total)
T2DA4 000:560 JLINK_WriteReg(R0, 0x08000400)  returns 0x00 (0000ms, 0362ms total)
T2DA4 000:560 JLINK_WriteReg(R1, 0x00000400)  returns 0x00 (0000ms, 0362ms total)
T2DA4 000:560 JLINK_WriteReg(R2, 0x20000164)  returns 0x00 (0000ms, 0362ms total)
T2DA4 000:560 JLINK_WriteReg(R3, 0x00000000)  returns 0x00 (0000ms, 0362ms total)
T2DA4 000:560 JLINK_WriteReg(R4, 0x00000000)  returns 0x00 (0000ms, 0362ms total)
T2DA4 000:560 JLINK_WriteReg(R5, 0x00000000)  returns 0x00 (0000ms, 0362ms total)
T2DA4 000:560 JLINK_WriteReg(R6, 0x00000000)  returns 0x00 (0000ms, 0362ms total)
T2DA4 000:560 JLINK_WriteReg(R7, 0x00000000)  returns 0x00 (0000ms, 0362ms total)
T2DA4 000:560 JLINK_WriteReg(R8, 0x00000000)  returns 0x00 (0000ms, 0362ms total)
T2DA4 000:560 JLINK_WriteReg(R9, 0x20000160)  returns 0x00 (0000ms, 0362ms total)
T2DA4 000:560 JLINK_WriteReg(R10, 0x00000000)  returns 0x00 (0000ms, 0362ms total)
T2DA4 000:560 JLINK_WriteReg(R11, 0x00000000)  returns 0x00 (0000ms, 0362ms total)
T2DA4 000:560 JLINK_WriteReg(R12, 0x00000000)  returns 0x00 (0000ms, 0362ms total)
T2DA4 000:560 JLINK_WriteReg(R13 (SP), 0x20001000)  returns 0x00 (0000ms, 0362ms total)
T2DA4 000:560 JLINK_WriteReg(R14, 0x20000001)  returns 0x00 (0001ms, 0363ms total)
T2DA4 000:561 JLINK_WriteReg(R15 (PC), 0x200000F4)  returns 0x00 (0000ms, 0363ms total)
T2DA4 000:561 JLINK_WriteReg(XPSR, 0x01000000)  returns 0x00 (0000ms, 0363ms total)
T2DA4 000:561 JLINK_WriteReg(MSP, 0x20001000)  returns 0x00 (0000ms, 0363ms total)
T2DA4 000:561 JLINK_WriteReg(PSP, 0x20001000)  returns 0x00 (0000ms, 0363ms total)
T2DA4 000:561 JLINK_WriteReg(CFBP, 0x00000000)  returns 0x00 (0000ms, 0363ms total)
T2DA4 000:561 JLINK_SetBPEx(Addr = 0x20000000, Type = 0xFFFFFFF2)  returns 0x00000006 (0000ms, 0363ms total)
T2DA4 000:561 JLINK_Go() -- CPU_ReadMem(4 bytes @ 0xE0001000) (0002ms, 0365ms total)
T2DA4 000:563 JLINK_IsHalted()  returns FALSE (0000ms, 0365ms total)
T2DA4 000:565 JLINK_IsHalted()  returns FALSE (0000ms, 0365ms total)
T2DA4 000:567 JLINK_IsHalted()  returns FALSE (0000ms, 0365ms total)
T2DA4 000:569 JLINK_IsHalted()  returns FALSE (0000ms, 0365ms total)
T2DA4 000:571 JLINK_IsHalted()  returns FALSE (0000ms, 0365ms total)
T2DA4 000:573 JLINK_IsHalted()  returns FALSE (0000ms, 0365ms total)
T2DA4 000:574 JLINK_IsHalted()  returns FALSE (0000ms, 0365ms total)
T2DA4 000:576 JLINK_IsHalted()  returns FALSE (0000ms, 0365ms total)
T2DA4 000:578 JLINK_IsHalted()  returns FALSE (0000ms, 0365ms total)
T2DA4 000:580 JLINK_IsHalted()  returns FALSE (0000ms, 0365ms total)
T2DA4 000:583 JLINK_IsHalted()  returns FALSE (0000ms, 0365ms total)
T2DA4 000:585 JLINK_IsHalted()  returns FALSE (0000ms, 0365ms total)
T2DA4 000:589 JLINK_IsHalted()  returns FALSE (0000ms, 0365ms total)
T2DA4 000:591 JLINK_IsHalted()  returns FALSE (0000ms, 0365ms total)
T2DA4 000:593 JLINK_IsHalted()  returns FALSE (0000ms, 0365ms total)
T2DA4 000:595 JLINK_IsHalted() -- CPU_ReadMem(2 bytes @ 0x20000000)  returns TRUE (0002ms, 0367ms total)
T2DA4 000:597 JLINK_ReadReg(R15 (PC))  returns 0x20000000 (0000ms, 0365ms total)
T2DA4 000:597 JLINK_ClrBPEx(BPHandle = 0x00000006)  returns 0x00 (0000ms, 0365ms total)
T2DA4 000:597 JLINK_ReadReg(R0)  returns 0x00000000 (0000ms, 0365ms total)
T2DA4 000:598 JLINK_WriteMem(0x20000164, 0x029C Bytes, ...) - Data: 00 23 0B 21 02 60 3F 48 02 60 3F 48 02 60 03 20 ... -- CPU_WriteMem(668 bytes @ 0x20000164)  returns 0x29C (0003ms, 0368ms total)
T2DA4 000:601 JLINK_WriteMem(0x20000400, 0x0164 Bytes, ...) - Data: 0E F9 DA F8 00 00 85 63 00 22 0E E0 10 F1 FF 4F ... -- CPU_WriteMem(356 bytes @ 0x20000400)  returns 0x164 (0001ms, 0369ms total)
T2DA4 000:602 JLINK_WriteReg(R0, 0x08000800)  returns 0x00 (0000ms, 0369ms total)
T2DA4 000:602 JLINK_WriteReg(R1, 0x00000400)  returns 0x00 (0000ms, 0369ms total)
T2DA4 000:602 JLINK_WriteReg(R2, 0x20000164)  returns 0x00 (0000ms, 0369ms total)
T2DA4 000:602 JLINK_WriteReg(R3, 0x00000000)  returns 0x00 (0000ms, 0369ms total)
T2DA4 000:602 JLINK_WriteReg(R4, 0x00000000)  returns 0x00 (0000ms, 0369ms total)
T2DA4 000:602 JLINK_WriteReg(R5, 0x00000000)  returns 0x00 (0000ms, 0369ms total)
T2DA4 000:602 JLINK_WriteReg(R6, 0x00000000)  returns 0x00 (0000ms, 0369ms total)
T2DA4 000:602 JLINK_WriteReg(R7, 0x00000000)  returns 0x00 (0000ms, 0369ms total)
T2DA4 000:602 JLINK_WriteReg(R8, 0x00000000)  returns 0x00 (0000ms, 0369ms total)
T2DA4 000:602 JLINK_WriteReg(R9, 0x20000160)  returns 0x00 (0000ms, 0369ms total)
T2DA4 000:602 JLINK_WriteReg(R10, 0x00000000)  returns 0x00 (0000ms, 0369ms total)
T2DA4 000:602 JLINK_WriteReg(R11, 0x00000000)  returns 0x00 (0000ms, 0369ms total)
T2DA4 000:602 JLINK_WriteReg(R12, 0x00000000)  returns 0x00 (0001ms, 0370ms total)
T2DA4 000:603 JLINK_WriteReg(R13 (SP), 0x20001000)  returns 0x00 (0000ms, 0370ms total)
T2DA4 000:603 JLINK_WriteReg(R14, 0x20000001)  returns 0x00 (0000ms, 0370ms total)
T2DA4 000:603 JLINK_WriteReg(R15 (PC), 0x200000F4)  returns 0x00 (0000ms, 0370ms total)
T2DA4 000:603 JLINK_WriteReg(XPSR, 0x01000000)  returns 0x00 (0000ms, 0370ms total)
T2DA4 000:603 JLINK_WriteReg(MSP, 0x20001000)  returns 0x00 (0000ms, 0370ms total)
T2DA4 000:603 JLINK_WriteReg(PSP, 0x20001000)  returns 0x00 (0000ms, 0370ms total)
T2DA4 000:603 JLINK_WriteReg(CFBP, 0x00000000)  returns 0x00 (0000ms, 0370ms total)
T2DA4 000:603 JLINK_SetBPEx(Addr = 0x20000000, Type = 0xFFFFFFF2)  returns 0x00000007 (0000ms, 0370ms total)
T2DA4 000:603 JLINK_Go() -- CPU_ReadMem(4 bytes @ 0xE0001000) (0002ms, 0372ms total)
T2DA4 000:605 JLINK_IsHalted()  returns FALSE (0000ms, 0372ms total)
T2DA4 000:607 JLINK_IsHalted()  returns FALSE (0000ms, 0372ms total)
T2DA4 000:609 JLINK_IsHalted()  returns FALSE (0000ms, 0372ms total)
T2DA4 000:611 JLINK_IsHalted()  returns FALSE (0000ms, 0372ms total)
T2DA4 000:613 JLINK_IsHalted()  returns FALSE (0000ms, 0372ms total)
T2DA4 000:615 JLINK_IsHalted()  returns FALSE (0000ms, 0372ms total)
T2DA4 000:617 JLINK_IsHalted()  returns FALSE (0000ms, 0372ms total)
T2DA4 000:619 JLINK_IsHalted()  returns FALSE (0000ms, 0372ms total)
T2DA4 000:621 JLINK_IsHalted()  returns FALSE (0000ms, 0372ms total)
T2DA4 000:623 JLINK_IsHalted()  returns FALSE (0000ms, 0372ms total)
T2DA4 000:625 JLINK_IsHalted()  returns FALSE (0000ms, 0372ms total)
T2DA4 000:627 JLINK_IsHalted()  returns FALSE (0000ms, 0372ms total)
T2DA4 000:629 JLINK_IsHalted()  returns FALSE (0000ms, 0372ms total)
T2DA4 000:631 JLINK_IsHalted()  returns FALSE (0000ms, 0372ms total)
T2DA4 000:640 JLINK_IsHalted() -- CPU_ReadMem(2 bytes @ 0x20000000)  returns TRUE (0001ms, 0373ms total)
T2DA4 000:641 JLINK_ReadReg(R15 (PC))  returns 0x20000000 (0000ms, 0372ms total)
T2DA4 000:641 JLINK_ClrBPEx(BPHandle = 0x00000007)  returns 0x00 (0000ms, 0372ms total)
T2DA4 000:641 JLINK_ReadReg(R0)  returns 0x00000000 (0000ms, 0372ms total)
T2DA4 000:641 JLINK_WriteMem(0x20000164, 0x029C Bytes, ...) - Data: 2D E9 FF 41 00 24 05 46 03 AE 0A 27 4F F0 01 08 ... -- CPU_WriteMem(668 bytes @ 0x20000164)  returns 0x29C (0004ms, 0376ms total)
T2DA4 000:645 JLINK_WriteMem(0x20000400, 0x0164 Bytes, ...) - Data: A0 05 00 20 DC 03 00 20 00 80 15 44 00 80 DA 43 ... -- CPU_WriteMem(356 bytes @ 0x20000400)  returns 0x164 (0002ms, 0378ms total)
T2DA4 000:647 JLINK_WriteReg(R0, 0x08000C00)  returns 0x00 (0000ms, 0378ms total)
T2DA4 000:647 JLINK_WriteReg(R1, 0x00000400)  returns 0x00 (0000ms, 0378ms total)
T2DA4 000:647 JLINK_WriteReg(R2, 0x20000164)  returns 0x00 (0000ms, 0378ms total)
T2DA4 000:647 JLINK_WriteReg(R3, 0x00000000)  returns 0x00 (0000ms, 0378ms total)
T2DA4 000:647 JLINK_WriteReg(R4, 0x00000000)  returns 0x00 (0000ms, 0378ms total)
T2DA4 000:647 JLINK_WriteReg(R5, 0x00000000)  returns 0x00 (0000ms, 0378ms total)
T2DA4 000:647 JLINK_WriteReg(R6, 0x00000000)  returns 0x00 (0000ms, 0378ms total)
T2DA4 000:647 JLINK_WriteReg(R7, 0x00000000)  returns 0x00 (0000ms, 0378ms total)
T2DA4 000:647 JLINK_WriteReg(R8, 0x00000000)  returns 0x00 (0000ms, 0378ms total)
T2DA4 000:647 JLINK_WriteReg(R9, 0x20000160)  returns 0x00 (0000ms, 0378ms total)
T2DA4 000:647 JLINK_WriteReg(R10, 0x00000000)  returns 0x00 (0000ms, 0378ms total)
T2DA4 000:647 JLINK_WriteReg(R11, 0x00000000)  returns 0x00 (0000ms, 0378ms total)
T2DA4 000:647 JLINK_WriteReg(R12, 0x00000000)  returns 0x00 (0000ms, 0378ms total)
T2DA4 000:647 JLINK_WriteReg(R13 (SP), 0x20001000)  returns 0x00 (0000ms, 0378ms total)
T2DA4 000:647 JLINK_WriteReg(R14, 0x20000001)  returns 0x00 (0000ms, 0378ms total)
T2DA4 000:647 JLINK_WriteReg(R15 (PC), 0x200000F4)  returns 0x00 (0000ms, 0378ms total)
T2DA4 000:647 JLINK_WriteReg(XPSR, 0x01000000)  returns 0x00 (0000ms, 0378ms total)
T2DA4 000:647 JLINK_WriteReg(MSP, 0x20001000)  returns 0x00 (0000ms, 0378ms total)
T2DA4 000:647 JLINK_WriteReg(PSP, 0x20001000)  returns 0x00 (0000ms, 0378ms total)
T2DA4 000:647 JLINK_WriteReg(CFBP, 0x00000000)  returns 0x00 (0000ms, 0378ms total)
T2DA4 000:647 JLINK_SetBPEx(Addr = 0x20000000, Type = 0xFFFFFFF2)  returns 0x00000008 (0000ms, 0378ms total)
T2DA4 000:647 JLINK_Go() -- CPU_ReadMem(4 bytes @ 0xE0001000) (0002ms, 0380ms total)
T2DA4 000:649 JLINK_IsHalted()  returns FALSE (0000ms, 0380ms total)
T2DA4 000:651 JLINK_IsHalted()  returns FALSE (0000ms, 0380ms total)
T2DA4 000:653 JLINK_IsHalted()  returns FALSE (0000ms, 0380ms total)
T2DA4 000:654 JLINK_IsHalted()  returns FALSE (0000ms, 0380ms total)
T2DA4 000:656 JLINK_IsHalted()  returns FALSE (0000ms, 0380ms total)
T2DA4 000:658 JLINK_IsHalted()  returns FALSE (0000ms, 0380ms total)
T2DA4 000:660 JLINK_IsHalted()  returns FALSE (0000ms, 0380ms total)
T2DA4 000:663 JLINK_IsHalted()  returns FALSE (0000ms, 0380ms total)
T2DA4 000:665 JLINK_IsHalted()  returns FALSE (0000ms, 0380ms total)
T2DA4 000:667 JLINK_IsHalted()  returns FALSE (0000ms, 0380ms total)
T2DA4 000:669 JLINK_IsHalted()  returns FALSE (0000ms, 0380ms total)
T2DA4 000:671 JLINK_IsHalted()  returns FALSE (0000ms, 0380ms total)
T2DA4 000:673 JLINK_IsHalted()  returns FALSE (0000ms, 0380ms total)
T2DA4 000:674 JLINK_IsHalted()  returns FALSE (0000ms, 0380ms total)
T2DA4 000:676 JLINK_IsHalted()  returns FALSE (0000ms, 0380ms total)
T2DA4 000:678 JLINK_IsHalted()  returns FALSE (0000ms, 0380ms total)
T2DA4 000:680 JLINK_IsHalted() -- CPU_ReadMem(2 bytes @ 0x20000000)  returns TRUE (0001ms, 0381ms total)
T2DA4 000:681 JLINK_ReadReg(R15 (PC))  returns 0x20000000 (0000ms, 0380ms total)
T2DA4 000:681 JLINK_ClrBPEx(BPHandle = 0x00000008)  returns 0x00 (0000ms, 0380ms total)
T2DA4 000:681 JLINK_ReadReg(R0)  returns 0x00000000 (0000ms, 0380ms total)
T2DA4 000:683 JLINK_WriteMem(0x20000164, 0x029C Bytes, ...) - Data: 01 46 67 48 23 E0 40 F2 16 60 87 42 38 46 0F D9 ... -- CPU_WriteMem(668 bytes @ 0x20000164)  returns 0x29C (0003ms, 0383ms total)
T2DA4 000:686 JLINK_WriteMem(0x20000400, 0x0164 Bytes, ...) - Data: 0C 4A 09 68 B1 FB F2 F1 01 EB 81 01 49 00 00 E0 ... -- CPU_WriteMem(356 bytes @ 0x20000400)  returns 0x164 (0001ms, 0384ms total)
T2DA4 000:687 JLINK_WriteReg(R0, 0x08001000)  returns 0x00 (0000ms, 0384ms total)
T2DA4 000:687 JLINK_WriteReg(R1, 0x00000400)  returns 0x00 (0000ms, 0384ms total)
T2DA4 000:687 JLINK_WriteReg(R2, 0x20000164)  returns 0x00 (0000ms, 0384ms total)
T2DA4 000:687 JLINK_WriteReg(R3, 0x00000000)  returns 0x00 (0000ms, 0384ms total)
T2DA4 000:687 JLINK_WriteReg(R4, 0x00000000)  returns 0x00 (0000ms, 0384ms total)
T2DA4 000:687 JLINK_WriteReg(R5, 0x00000000)  returns 0x00 (0000ms, 0384ms total)
T2DA4 000:687 JLINK_WriteReg(R6, 0x00000000)  returns 0x00 (0000ms, 0384ms total)
T2DA4 000:687 JLINK_WriteReg(R7, 0x00000000)  returns 0x00 (0000ms, 0384ms total)
T2DA4 000:687 JLINK_WriteReg(R8, 0x00000000)  returns 0x00 (0000ms, 0384ms total)
T2DA4 000:687 JLINK_WriteReg(R9, 0x20000160)  returns 0x00 (0000ms, 0384ms total)
T2DA4 000:687 JLINK_WriteReg(R10, 0x00000000)  returns 0x00 (0000ms, 0384ms total)
T2DA4 000:687 JLINK_WriteReg(R11, 0x00000000)  returns 0x00 (0000ms, 0384ms total)
T2DA4 000:687 JLINK_WriteReg(R12, 0x00000000)  returns 0x00 (0000ms, 0384ms total)
T2DA4 000:687 JLINK_WriteReg(R13 (SP), 0x20001000)  returns 0x00 (0000ms, 0384ms total)
T2DA4 000:687 JLINK_WriteReg(R14, 0x20000001)  returns 0x00 (0000ms, 0384ms total)
T2DA4 000:687 JLINK_WriteReg(R15 (PC), 0x200000F4)  returns 0x00 (0000ms, 0384ms total)
T2DA4 000:687 JLINK_WriteReg(XPSR, 0x01000000)  returns 0x00 (0000ms, 0384ms total)
T2DA4 000:687 JLINK_WriteReg(MSP, 0x20001000)  returns 0x00 (0001ms, 0385ms total)
T2DA4 000:688 JLINK_WriteReg(PSP, 0x20001000)  returns 0x00 (0000ms, 0385ms total)
T2DA4 000:688 JLINK_WriteReg(CFBP, 0x00000000)  returns 0x00 (0000ms, 0385ms total)
T2DA4 000:688 JLINK_SetBPEx(Addr = 0x20000000, Type = 0xFFFFFFF2)  returns 0x00000009 (0000ms, 0385ms total)
T2DA4 000:688 JLINK_Go() -- CPU_ReadMem(4 bytes @ 0xE0001000) (0002ms, 0387ms total)
T2DA4 000:690 JLINK_IsHalted()  returns FALSE (0000ms, 0387ms total)
T2DA4 000:692 JLINK_IsHalted()  returns FALSE (0000ms, 0387ms total)
T2DA4 000:696 JLINK_IsHalted()  returns FALSE (0000ms, 0387ms total)
T2DA4 000:698 JLINK_IsHalted()  returns FALSE (0000ms, 0387ms total)
T2DA4 000:700 JLINK_IsHalted()  returns FALSE (0000ms, 0387ms total)
T2DA4 000:703 JLINK_IsHalted()  returns FALSE (0000ms, 0387ms total)
T2DA4 000:705 JLINK_IsHalted()  returns FALSE (0000ms, 0387ms total)
T2DA4 000:707 JLINK_IsHalted()  returns FALSE (0000ms, 0387ms total)
T2DA4 000:709 JLINK_IsHalted()  returns FALSE (0000ms, 0387ms total)
T2DA4 000:711 JLINK_IsHalted()  returns FALSE (0000ms, 0387ms total)
T2DA4 000:713 JLINK_IsHalted()  returns FALSE (0000ms, 0387ms total)
T2DA4 000:715 JLINK_IsHalted()  returns FALSE (0000ms, 0387ms total)
T2DA4 000:717 JLINK_IsHalted()  returns FALSE (0000ms, 0387ms total)
T2DA4 000:719 JLINK_IsHalted()  returns FALSE (0000ms, 0387ms total)
T2DA4 000:721 JLINK_IsHalted() -- CPU_ReadMem(2 bytes @ 0x20000000)  returns TRUE (0002ms, 0389ms total)
T2DA4 000:723 JLINK_ReadReg(R15 (PC))  returns 0x20000000 (0001ms, 0388ms total)
T2DA4 000:724 JLINK_ClrBPEx(BPHandle = 0x00000009)  returns 0x00 (0000ms, 0388ms total)
T2DA4 000:724 JLINK_ReadReg(R0)  returns 0x00000000 (0000ms, 0388ms total)
T2DA4 000:727 JLINK_WriteMem(0x20000164, 0x029C Bytes, ...) - Data: CB 6A 23 F4 70 03 2B 43 CB 62 21 68 89 68 0F 4B ... -- CPU_WriteMem(668 bytes @ 0x20000164)  returns 0x29C (0003ms, 0391ms total)
T2DA4 000:730 JLINK_WriteMem(0x20000400, 0x0164 Bytes, ...) - Data: 13 01 15 02 AC F1 64 0C A9 F1 50 09 AA F1 3C 0A ... -- CPU_WriteMem(356 bytes @ 0x20000400)  returns 0x164 (0002ms, 0393ms total)
T2DA4 000:732 JLINK_WriteReg(R0, 0x08001400)  returns 0x00 (0000ms, 0393ms total)
T2DA4 000:732 JLINK_WriteReg(R1, 0x00000400)  returns 0x00 (0000ms, 0393ms total)
T2DA4 000:732 JLINK_WriteReg(R2, 0x20000164)  returns 0x00 (0000ms, 0393ms total)
T2DA4 000:732 JLINK_WriteReg(R3, 0x00000000)  returns 0x00 (0000ms, 0393ms total)
T2DA4 000:732 JLINK_WriteReg(R4, 0x00000000)  returns 0x00 (0000ms, 0393ms total)
T2DA4 000:732 JLINK_WriteReg(R5, 0x00000000)  returns 0x00 (0000ms, 0393ms total)
T2DA4 000:732 JLINK_WriteReg(R6, 0x00000000)  returns 0x00 (0000ms, 0393ms total)
T2DA4 000:732 JLINK_WriteReg(R7, 0x00000000)  returns 0x00 (0000ms, 0393ms total)
T2DA4 000:732 JLINK_WriteReg(R8, 0x00000000)  returns 0x00 (0000ms, 0393ms total)
T2DA4 000:732 JLINK_WriteReg(R9, 0x20000160)  returns 0x00 (0000ms, 0393ms total)
T2DA4 000:732 JLINK_WriteReg(R10, 0x00000000)  returns 0x00 (0000ms, 0393ms total)
T2DA4 000:733 JLINK_WriteReg(R11, 0x00000000)  returns 0x00 (0000ms, 0394ms total)
T2DA4 000:733 JLINK_WriteReg(R12, 0x00000000)  returns 0x00 (0000ms, 0394ms total)
T2DA4 000:733 JLINK_WriteReg(R13 (SP), 0x20001000)  returns 0x00 (0000ms, 0394ms total)
T2DA4 000:733 JLINK_WriteReg(R14, 0x20000001)  returns 0x00 (0000ms, 0394ms total)
T2DA4 000:733 JLINK_WriteReg(R15 (PC), 0x200000F4)  returns 0x00 (0000ms, 0394ms total)
T2DA4 000:733 JLINK_WriteReg(XPSR, 0x01000000)  returns 0x00 (0000ms, 0394ms total)
T2DA4 000:733 JLINK_WriteReg(MSP, 0x20001000)  returns 0x00 (0000ms, 0394ms total)
T2DA4 000:733 JLINK_WriteReg(PSP, 0x20001000)  returns 0x00 (0000ms, 0394ms total)
T2DA4 000:733 JLINK_WriteReg(CFBP, 0x00000000)  returns 0x00 (0000ms, 0394ms total)
T2DA4 000:733 JLINK_SetBPEx(Addr = 0x20000000, Type = 0xFFFFFFF2)  returns 0x0000000A (0000ms, 0394ms total)
T2DA4 000:733 JLINK_Go() -- CPU_ReadMem(4 bytes @ 0xE0001000) (0002ms, 0396ms total)
T2DA4 000:735 JLINK_IsHalted()  returns FALSE (0000ms, 0396ms total)
T2DA4 000:739 JLINK_IsHalted()  returns FALSE (0000ms, 0396ms total)
T2DA4 000:741 JLINK_IsHalted()  returns FALSE (0000ms, 0396ms total)
T2DA4 000:743 JLINK_IsHalted()  returns FALSE (0000ms, 0396ms total)
T2DA4 000:746 JLINK_IsHalted()  returns FALSE (0000ms, 0396ms total)
T2DA4 000:748 JLINK_IsHalted()  returns FALSE (0000ms, 0396ms total)
T2DA4 000:750 JLINK_IsHalted()  returns FALSE (0000ms, 0396ms total)
T2DA4 000:752 JLINK_IsHalted()  returns FALSE (0000ms, 0396ms total)
T2DA4 000:754 JLINK_IsHalted()  returns FALSE (0000ms, 0396ms total)
T2DA4 000:756 JLINK_IsHalted()  returns FALSE (0000ms, 0396ms total)
T2DA4 000:758 JLINK_IsHalted()  returns FALSE (0000ms, 0396ms total)
T2DA4 000:760 JLINK_IsHalted()  returns FALSE (0000ms, 0396ms total)
T2DA4 000:762 JLINK_IsHalted()  returns FALSE (0000ms, 0396ms total)
T2DA4 000:764 JLINK_IsHalted()  returns FALSE (0000ms, 0396ms total)
T2DA4 000:766 JLINK_IsHalted()  returns FALSE (0000ms, 0396ms total)
T2DA4 000:768 JLINK_IsHalted() -- CPU_ReadMem(2 bytes @ 0x20000000)  returns TRUE (0002ms, 0398ms total)
T2DA4 000:770 JLINK_ReadReg(R15 (PC))  returns 0x20000000 (0000ms, 0396ms total)
T2DA4 000:770 JLINK_ClrBPEx(BPHandle = 0x0000000A)  returns 0x00 (0000ms, 0396ms total)
T2DA4 000:770 JLINK_ReadReg(R0)  returns 0x00000000 (0000ms, 0396ms total)
T2DA4 000:773 JLINK_WriteMem(0x20000164, 0x029C Bytes, ...) - Data: 59 45 01 D1 04 22 0E E0 71 45 01 D1 40 22 0A E0 ... -- CPU_WriteMem(668 bytes @ 0x20000164)  returns 0x29C (0003ms, 0399ms total)
T2DA4 000:776 JLINK_WriteMem(0x20000400, 0x0164 Bytes, ...) - Data: 21 F0 04 01 01 60 20 68 01 68 41 F0 0A 01 01 60 ... -- CPU_WriteMem(356 bytes @ 0x20000400)  returns 0x164 (0001ms, 0400ms total)
T2DA4 000:777 JLINK_WriteReg(R0, 0x08001800)  returns 0x00 (0001ms, 0401ms total)
T2DA4 000:778 JLINK_WriteReg(R1, 0x00000400)  returns 0x00 (0000ms, 0401ms total)
T2DA4 000:778 JLINK_WriteReg(R2, 0x20000164)  returns 0x00 (0000ms, 0401ms total)
T2DA4 000:778 JLINK_WriteReg(R3, 0x00000000)  returns 0x00 (0000ms, 0401ms total)
T2DA4 000:778 JLINK_WriteReg(R4, 0x00000000)  returns 0x00 (0000ms, 0401ms total)
T2DA4 000:778 JLINK_WriteReg(R5, 0x00000000)  returns 0x00 (0000ms, 0401ms total)
T2DA4 000:778 JLINK_WriteReg(R6, 0x00000000)  returns 0x00 (0000ms, 0401ms total)
T2DA4 000:778 JLINK_WriteReg(R7, 0x00000000)  returns 0x00 (0000ms, 0401ms total)
T2DA4 000:778 JLINK_WriteReg(R8, 0x00000000)  returns 0x00 (0000ms, 0401ms total)
T2DA4 000:778 JLINK_WriteReg(R9, 0x20000160)  returns 0x00 (0000ms, 0401ms total)
T2DA4 000:778 JLINK_WriteReg(R10, 0x00000000)  returns 0x00 (0000ms, 0401ms total)
T2DA4 000:778 JLINK_WriteReg(R11, 0x00000000)  returns 0x00 (0000ms, 0401ms total)
T2DA4 000:778 JLINK_WriteReg(R12, 0x00000000)  returns 0x00 (0000ms, 0401ms total)
T2DA4 000:778 JLINK_WriteReg(R13 (SP), 0x20001000)  returns 0x00 (0000ms, 0401ms total)
T2DA4 000:778 JLINK_WriteReg(R14, 0x20000001)  returns 0x00 (0000ms, 0401ms total)
T2DA4 000:778 JLINK_WriteReg(R15 (PC), 0x200000F4)  returns 0x00 (0001ms, 0402ms total)
T2DA4 000:779 JLINK_WriteReg(XPSR, 0x01000000)  returns 0x00 (0000ms, 0402ms total)
T2DA4 000:779 JLINK_WriteReg(MSP, 0x20001000)  returns 0x00 (0000ms, 0402ms total)
T2DA4 000:779 JLINK_WriteReg(PSP, 0x20001000)  returns 0x00 (0000ms, 0402ms total)
T2DA4 000:779 JLINK_WriteReg(CFBP, 0x00000000)  returns 0x00 (0000ms, 0402ms total)
T2DA4 000:779 JLINK_SetBPEx(Addr = 0x20000000, Type = 0xFFFFFFF2)  returns 0x0000000B (0000ms, 0402ms total)
T2DA4 000:779 JLINK_Go() -- CPU_ReadMem(4 bytes @ 0xE0001000) (0002ms, 0404ms total)
T2DA4 000:781 JLINK_IsHalted()  returns FALSE (0000ms, 0404ms total)
T2DA4 000:784 JLINK_IsHalted()  returns FALSE (0000ms, 0404ms total)
T2DA4 000:786 JLINK_IsHalted()  returns FALSE (0000ms, 0404ms total)
T2DA4 000:788 JLINK_IsHalted()  returns FALSE (0000ms, 0404ms total)
T2DA4 000:790 JLINK_IsHalted()  returns FALSE (0000ms, 0404ms total)
T2DA4 000:792 JLINK_IsHalted()  returns FALSE (0000ms, 0404ms total)
T2DA4 000:794 JLINK_IsHalted()  returns FALSE (0000ms, 0404ms total)
T2DA4 000:796 JLINK_IsHalted()  returns FALSE (0000ms, 0404ms total)
T2DA4 000:798 JLINK_IsHalted()  returns FALSE (0000ms, 0404ms total)
T2DA4 000:800 JLINK_IsHalted()  returns FALSE (0000ms, 0404ms total)
T2DA4 000:808 JLINK_IsHalted()  returns FALSE (0000ms, 0404ms total)
T2DA4 000:810 JLINK_IsHalted()  returns FALSE (0000ms, 0404ms total)
T2DA4 000:812 JLINK_IsHalted()  returns FALSE (0000ms, 0404ms total)
T2DA4 000:815 JLINK_IsHalted() -- CPU_ReadMem(2 bytes @ 0x20000000)  returns TRUE (0002ms, 0406ms total)
T2DA4 000:817 JLINK_ReadReg(R15 (PC))  returns 0x20000000 (0000ms, 0404ms total)
T2DA4 000:817 JLINK_ClrBPEx(BPHandle = 0x0000000B)  returns 0x00 (0001ms, 0405ms total)
T2DA4 000:818 JLINK_ReadReg(R0)  returns 0x00000000 (0000ms, 0405ms total)
T2DA4 000:821 JLINK_WriteMem(0x20000164, 0x029C Bytes, ...) - Data: 02 D1 4F F0 04 08 08 E0 DF F8 A0 80 40 45 02 D1 ... -- CPU_WriteMem(668 bytes @ 0x20000164)  returns 0x29C (0002ms, 0407ms total)
T2DA4 000:823 JLINK_WriteMem(0x20000400, 0x0164 Bytes, ...) - Data: 3C 00 20 68 01 68 C9 07 03 D1 01 68 41 F0 01 01 ... -- CPU_WriteMem(356 bytes @ 0x20000400)  returns 0x164 (0002ms, 0409ms total)
T2DA4 000:825 JLINK_WriteReg(R0, 0x08001C00)  returns 0x00 (0000ms, 0409ms total)
T2DA4 000:825 JLINK_WriteReg(R1, 0x00000400)  returns 0x00 (0000ms, 0409ms total)
T2DA4 000:825 JLINK_WriteReg(R2, 0x20000164)  returns 0x00 (0000ms, 0409ms total)
T2DA4 000:825 JLINK_WriteReg(R3, 0x00000000)  returns 0x00 (0001ms, 0410ms total)
T2DA4 000:826 JLINK_WriteReg(R4, 0x00000000)  returns 0x00 (0000ms, 0410ms total)
T2DA4 000:826 JLINK_WriteReg(R5, 0x00000000)  returns 0x00 (0000ms, 0410ms total)
T2DA4 000:826 JLINK_WriteReg(R6, 0x00000000)  returns 0x00 (0000ms, 0410ms total)
T2DA4 000:826 JLINK_WriteReg(R7, 0x00000000)  returns 0x00 (0000ms, 0410ms total)
T2DA4 000:826 JLINK_WriteReg(R8, 0x00000000)  returns 0x00 (0000ms, 0410ms total)
T2DA4 000:826 JLINK_WriteReg(R9, 0x20000160)  returns 0x00 (0000ms, 0410ms total)
T2DA4 000:826 JLINK_WriteReg(R10, 0x00000000)  returns 0x00 (0000ms, 0410ms total)
T2DA4 000:826 JLINK_WriteReg(R11, 0x00000000)  returns 0x00 (0000ms, 0410ms total)
T2DA4 000:826 JLINK_WriteReg(R12, 0x00000000)  returns 0x00 (0000ms, 0410ms total)
T2DA4 000:826 JLINK_WriteReg(R13 (SP), 0x20001000)  returns 0x00 (0000ms, 0410ms total)
T2DA4 000:826 JLINK_WriteReg(R14, 0x20000001)  returns 0x00 (0000ms, 0410ms total)
T2DA4 000:826 JLINK_WriteReg(R15 (PC), 0x200000F4)  returns 0x00 (0000ms, 0410ms total)
T2DA4 000:826 JLINK_WriteReg(XPSR, 0x01000000)  returns 0x00 (0000ms, 0410ms total)
T2DA4 000:827 JLINK_WriteReg(MSP, 0x20001000)  returns 0x00 (0000ms, 0411ms total)
T2DA4 000:827 JLINK_WriteReg(PSP, 0x20001000)  returns 0x00 (0000ms, 0411ms total)
T2DA4 000:827 JLINK_WriteReg(CFBP, 0x00000000)  returns 0x00 (0000ms, 0411ms total)
T2DA4 000:827 JLINK_SetBPEx(Addr = 0x20000000, Type = 0xFFFFFFF2)  returns 0x0000000C (0000ms, 0411ms total)
T2DA4 000:827 JLINK_Go() -- CPU_ReadMem(4 bytes @ 0xE0001000) (0002ms, 0413ms total)
T2DA4 000:829 JLINK_IsHalted()  returns FALSE (0001ms, 0414ms total)
T2DA4 000:832 JLINK_IsHalted()  returns FALSE (0000ms, 0413ms total)
T2DA4 000:835 JLINK_IsHalted()  returns FALSE (0000ms, 0413ms total)
T2DA4 000:837 JLINK_IsHalted()  returns FALSE (0000ms, 0413ms total)
T2DA4 000:839 JLINK_IsHalted()  returns FALSE (0000ms, 0413ms total)
T2DA4 000:841 JLINK_IsHalted()  returns FALSE (0000ms, 0413ms total)
T2DA4 000:843 JLINK_IsHalted()  returns FALSE (0000ms, 0413ms total)
T2DA4 000:846 JLINK_IsHalted()  returns FALSE (0000ms, 0413ms total)
T2DA4 000:848 JLINK_IsHalted()  returns FALSE (0000ms, 0413ms total)
T2DA4 000:850 JLINK_IsHalted()  returns FALSE (0000ms, 0413ms total)
T2DA4 000:852 JLINK_IsHalted()  returns FALSE (0000ms, 0413ms total)
T2DA4 000:854 JLINK_IsHalted()  returns FALSE (0000ms, 0413ms total)
T2DA4 000:856 JLINK_IsHalted()  returns FALSE (0000ms, 0413ms total)
T2DA4 000:858 JLINK_IsHalted()  returns FALSE (0000ms, 0413ms total)
T2DA4 000:860 JLINK_IsHalted() -- CPU_ReadMem(2 bytes @ 0x20000000)  returns TRUE (0001ms, 0414ms total)
T2DA4 000:861 JLINK_ReadReg(R15 (PC))  returns 0x20000000 (0002ms, 0415ms total)
T2DA4 000:863 JLINK_ClrBPEx(BPHandle = 0x0000000C)  returns 0x00 (0000ms, 0415ms total)
T2DA4 000:863 JLINK_ReadReg(R0)  returns 0x00000000 (0000ms, 0415ms total)
T2DA4 000:866 JLINK_WriteMem(0x20000164, 0x029C Bytes, ...) - Data: 25 73 1A E0 20 68 01 68 41 F4 00 71 01 60 20 68 ... -- CPU_WriteMem(668 bytes @ 0x20000164)  returns 0x29C (0003ms, 0418ms total)
T2DA4 000:869 JLINK_WriteMem(0x20000400, 0x0164 Bytes, ...) - Data: 70 47 00 00 02 48 81 68 02 78 11 44 81 60 70 47 ... -- CPU_WriteMem(356 bytes @ 0x20000400)  returns 0x164 (0002ms, 0420ms total)
T2DA4 000:871 JLINK_WriteReg(R0, 0x08002000)  returns 0x00 (0000ms, 0420ms total)
T2DA4 000:871 JLINK_WriteReg(R1, 0x00000400)  returns 0x00 (0000ms, 0420ms total)
T2DA4 000:871 JLINK_WriteReg(R2, 0x20000164)  returns 0x00 (0000ms, 0420ms total)
T2DA4 000:871 JLINK_WriteReg(R3, 0x00000000)  returns 0x00 (0000ms, 0420ms total)
T2DA4 000:871 JLINK_WriteReg(R4, 0x00000000)  returns 0x00 (0000ms, 0420ms total)
T2DA4 000:871 JLINK_WriteReg(R5, 0x00000000)  returns 0x00 (0000ms, 0420ms total)
T2DA4 000:871 JLINK_WriteReg(R6, 0x00000000)  returns 0x00 (0000ms, 0420ms total)
T2DA4 000:872 JLINK_WriteReg(R7, 0x00000000)  returns 0x00 (0000ms, 0421ms total)
T2DA4 000:872 JLINK_WriteReg(R8, 0x00000000)  returns 0x00 (0000ms, 0421ms total)
T2DA4 000:872 JLINK_WriteReg(R9, 0x20000160)  returns 0x00 (0000ms, 0421ms total)
T2DA4 000:872 JLINK_WriteReg(R10, 0x00000000)  returns 0x00 (0000ms, 0421ms total)
T2DA4 000:872 JLINK_WriteReg(R11, 0x00000000)  returns 0x00 (0000ms, 0421ms total)
T2DA4 000:872 JLINK_WriteReg(R12, 0x00000000)  returns 0x00 (0000ms, 0421ms total)
T2DA4 000:872 JLINK_WriteReg(R13 (SP), 0x20001000)  returns 0x00 (0000ms, 0421ms total)
T2DA4 000:872 JLINK_WriteReg(R14, 0x20000001)  returns 0x00 (0000ms, 0421ms total)
T2DA4 000:872 JLINK_WriteReg(R15 (PC), 0x200000F4)  returns 0x00 (0000ms, 0421ms total)
